
T26E8 000:325 SEGGER J-Link V5.12e Log File (0000ms, 0267ms total)
T26E8 000:325 DLL Compiled: Apr 29 2016 15:03:58 (0000ms, 0267ms total)
T26E8 000:325 Logging started @ 2017-11-27 13:15 (0000ms, 0267ms total)
T26E8 000:325 JLINK_SetWarnOutHandler(...) (0000ms, 0267ms total)
T26E8 000:325 JLINK_OpenEx(...)
Firmware: J-Link ARM-OB STM32 compiled Aug 22 2012 19:52:04
Hardware: V7.00
Feature(s): RDI,FlashDL,FlashBP,JFlash,GDBFull  returns O.K. (0264ms, 0531ms total)
T26E8 000:589 JLINK_SetErrorOutHandler(...) (0000ms, 0531ms total)
T26E8 000:589 JLINK_ExecCommand("ProjectFile = "C:\Users\victor\Desktop\tetris_ea_lpc4088_incompleto\JLinkSettings.ini"", ...)Device "LPC4088" selected.  returns 0x00 (0015ms, 0546ms total)
T26E8 000:604 JLINK_ExecCommand("Device = LPC4088FET208", ...)Device "LPC4088" selected.  returns 0x00 (0016ms, 0562ms total)
T26E8 000:620 JLINK_ExecCommand("DisableConnectionTimeout", ...)  returns 0x01 (0000ms, 0562ms total)
T26E8 000:620 JLINK_GetHardwareVersion()  returns 0x11170 (0000ms, 0562ms total)
T26E8 000:620 JLINK_GetDLLVersion()  returns 51205 (0000ms, 0562ms total)
T26E8 000:620 JLINK_GetFirmwareString(...) (0000ms, 0562ms total)
T26E8 000:620 JLINK_GetDLLVersion()  returns 51205 (0000ms, 0562ms total)
T26E8 000:620 JLINK_GetCompileDateTime() (0000ms, 0562ms total)
T26E8 000:620 JLINK_GetFirmwareString(...) (0000ms, 0562ms total)
T26E8 000:620 JLINK_GetHardwareVersion()  returns 0x11170 (0000ms, 0562ms total)
T26E8 000:620 JLINK_TIF_Select(JLINKARM_TIF_JTAG)  returns 0x00 (0002ms, 0564ms total)
T26E8 000:622 JLINK_SetSpeed(5000) (0000ms, 0564ms total)
T26E8 000:622 JLINK_GetIdData(...) >0x2F8 JTAG>TotalIRLen = 4, IRPrint = 0x01 >0x30 JTAG> >0x210 JTAG> >0x70 JTAG> >0x48 JTAG> >0x40 JTAG> >0x48 JTAG> >0x78 JTAG> >0x40 JTAG> >0x30 JTAG> >0x40 JTAG> >0x40 JTAG> >0x30 JTAG> >0x40 JTAG> >0x48 JTAG>Found Cortex-M4 r0p1, Little endian. >0x1D8 JTAG> >0x1D8 JTAG>FPUnit: 6 code (BP) slots and 2 literal slots >0x1D8 JTAG> >0x1D8 JTAG> >0x1D0 JTAG> >0x1D8 JTAG> >0x1D0 JTAG> >0x1D8 JTAG> >0x1D0 JTAG>CoreSight components:ROMTbl 0 @ E00FF000 >0x288 JTAG>
 >0x288 JTAG> >0x288 JTAG>ROMTbl 0 [0]: FFF0F000, CID: B105E00D, PID: 000BB00C SCS >0x288 JTAG> >0x288 JTAG>ROMTbl 0 [1]: FFF02000, CID: B105E00D, PID: 003BB002 DWT >0x288 JTAG> >0x288 JTAG>ROMTbl 0 [2]: FFF03000, CID: B105E00D, PID: 002BB003 FPB >0x288 JTAG> >0x288 JTAG>ROMTbl 0 [3]: FFF01000, CID: B105E00D, PID: 003BB001 ITM >0x288 JTAG> >0x288 JTAG> >0x288 JTAG>ROMTbl 0 [4]: FFF41000, CID: B105900D, PID: 000BB9A1 TPIU >0x288 JTAG> >0x288 JTAG>ROMTbl 0 [5]: FFF42000, CID: B105900D, PID: 000BB925 ETM
 ScanLen=4 NumDevices=1 aId[0]=0x4BA00477 aIrRead[0]=0 aScanLen[0]=0 aScanRead[0]=0 (0040ms, 0604ms total)
T26E8 000:662 JLINK_JTAG_GetDeviceID(DeviceIndex = 0)  returns 0x4BA00477 (0000ms, 0604ms total)
T26E8 000:662 JLINK_JTAG_GetDeviceInfo(DeviceIndex = 0)  returns 0x00 (0000ms, 0604ms total)
T26E8 000:662 JLINK_GetDLLVersion()  returns 51205 (0000ms, 0604ms total)
T26E8 000:662 JLINK_CORE_GetFound()  returns 0xE0000FF (0000ms, 0604ms total)
T26E8 000:662 JLINK_GetDebugInfo(0x100) -- Value=0xE00FF003  returns 0x00 (0000ms, 0604ms total)
T26E8 000:662 JLINK_GetDebugInfo(0x100) -- Value=0xE00FF003  returns 0x00 (0000ms, 0604ms total)
T26E8 000:662 JLINK_GetDebugInfo(0x101) -- Value=0xE0041000  returns 0x00 (0000ms, 0604ms total)
T26E8 000:662 JLINK_GetDebugInfo(0x102) -- Value=0x00000000  returns 0x00 (0000ms, 0604ms total)
T26E8 000:662 JLINK_GetDebugInfo(0x103) -- Value=0xE0040000  returns 0x00 (0000ms, 0604ms total)
T26E8 000:662 JLINK_GetDebugInfo(0x104) -- Value=0xE0000000  returns 0x00 (0000ms, 0604ms total)
T26E8 000:662 JLINK_GetDebugInfo(0x105) -- Value=0xE0001000  returns 0x00 (0000ms, 0604ms total)
T26E8 000:662 JLINK_GetDebugInfo(0x106) -- Value=0xE0002000  returns 0x00 (0000ms, 0604ms total)
T26E8 000:662 JLINK_GetDebugInfo(0x107) -- Value=0xE000E000  returns 0x00 (0000ms, 0604ms total)
T26E8 000:662 JLINK_GetDebugInfo(0x10C) -- Value=0xE000EDF0  returns 0x00 (0000ms, 0604ms total)
T26E8 000:662 JLINK_ReadMemU32(0xE000EF40, 0x0001 Items, ...) -- CPU is running >0x1D8 JTAG> - Data: 21 00 11 10  returns 0x01 (0002ms, 0606ms total)
T26E8 000:664 JLINK_ReadMemU32(0xE000EF44, 0x0001 Items, ...) -- CPU is running >0x1D8 JTAG> - Data: 11 00 00 11  returns 0x01 (0001ms, 0607ms total)
T26E8 000:665 JLINK_ReadMemU32(0xE000ED00, 0x0001 Items, ...) -- CPU is running >0x1D8 JTAG> - Data: 41 C2 0F 41  returns 0x01 (0001ms, 0608ms total)
T26E8 000:666 JLINK_SetResetType(JLINKARM_RESET_TYPE_NORMAL)  returns JLINKARM_RESET_TYPE_HALT_WP (0000ms, 0608ms total)
T26E8 000:666 JLINK_Reset() -- CPU is running >0x1D0 JTAG> -- CPU is running >0x1D0 JTAG> -- CPU is running >0x208 JTAG> -- CPU is running >0x1D8 JTAG> -- CPU is running >0x1D8 JTAG> -- CPU is running >0x1D0 JTAG> -- CPU is running >0x1D0 JTAG> -- CPU is running >0x1D8 JTAG> >0x170 JTAG> >0x1598 JTAG> >0x40 JTAG> >0x40 JTAG> >0x30 JTAG> >0x40 JTAG> >0x48 JTAG> >0x40 JTAG> >0x1D0 JTAG> >0x1D0 JTAG> >0x1D0 JTAG> >0x1D0 JTAG> >0x1D0 JTAG> >0x1D0 JTAG> >0x1D0 JTAG> >0x1D0 JTAG> >0x1D0 JTAG> >0x1D0 JTAG>
 >0x1D0 JTAG> >0x1D0 JTAG> >0x1D0 JTAG> >0x1D0 JTAG> >0x1D0 JTAG> >0x1D0 JTAG> >0x1D0 JTAG> >0x1D0 JTAG> >0x1D0 JTAG> >0x1D0 JTAG> >0x1D0 JTAG> >0x1D8 JTAG> >0x218 JTAG> >0x218 JTAG> >0x170 JTAG> >0x1598 JTAG> >0x1D0 JTAG> >0x1D0 JTAG> >0x1D8 JTAG> >0x1D8 JTAG> >0x1D8 JTAG> >0x1D8 JTAG> >0x1D8 JTAG> >0x1D8 JTAG> >0x1D8 JTAG> >0x1D8 JTAG> >0x1D0 JTAG> >0x1D0 JTAG> >0x1D0 JTAG> >0x1D0 JTAG> >0x1D0 JTAG> >0x1D0 JTAG> >0x1D0 JTAG> >0x1D8 JTAG> >0x218 JTAG> >0x218 JTAG> >0x170 JTAG> >0x1598 JTAG> >0x1D0 JTAG>
 >0x1D0 JTAG> >0x1D0 JTAG> >0x1D0 JTAG> >0x1D0 JTAG> >0x1D0 JTAG> >0x1D0 JTAG> >0x1D0 JTAG> >0x1D8 JTAG> >0x1D8 JTAG> (0321ms, 0929ms total)
T26E8 000:987 JLINK_ReadReg(R15 (PC))  returns 0x00002950 (0000ms, 0929ms total)
T26E8 000:987 JLINK_ReadReg(XPSR)  returns 0x61000000 (0000ms, 0929ms total)
T26E8 000:987 JLINK_Halt()  returns 0x00 (0000ms, 0929ms total)
T26E8 000:987 JLINK_IsHalted()  returns TRUE (0000ms, 0929ms total)
T26E8 000:987 JLINK_ReadMemU32(0xE000EDF0, 0x0001 Items, ...) >0x1D8 JTAG> - Data: 03 00 03 00  returns 0x01 (0002ms, 0931ms total)
T26E8 000:989 JLINK_WriteU32(0xE000EDF0, 0xA05F0003) >0x1D0 JTAG>  returns 0x00 (0001ms, 0932ms total)
T26E8 000:990 JLINK_WriteU32(0xE000EDFC, 0x01000000) >0x1D0 JTAG>  returns 0x00 (0001ms, 0933ms total)
T26E8 000:991 JLINK_GetHWStatus(...)  returns 0x00 (0000ms, 0933ms total)
T26E8 000:991 JLINK_GetNumBPUnits(Type = 0xFFFFFF00)  returns 0x06 (0000ms, 0933ms total)
T26E8 000:991 JLINK_GetNumBPUnits(Type = 0xF0)  returns 0x2000 (0000ms, 0933ms total)
T26E8 000:991 JLINK_GetNumWPUnits()  returns 0x04 (0000ms, 0933ms total)
T26E8 000:992 JLINK_GetSpeed()  returns 0xFA0 (0000ms, 0933ms total)
T26E8 000:992 JLINK_ReadMemU32(0xE000E004, 0x0001 Items, ...) >0x1D8 JTAG> - Data: 01 00 00 00  returns 0x01 (0001ms, 0934ms total)
T26E8 000:993 JLINK_ReadMemU32(0xE000E004, 0x0001 Items, ...) >0x1D8 JTAG> - Data: 01 00 00 00  returns 0x01 (0001ms, 0935ms total)
T26E8 000:994 JLINK_WriteMem(0xE0001000, 0x001C Bytes, ...) - Data: 01 00 00 00 00 00 00 00 00 00 00 00 00 00 00 00 ... >0x2F0 JTAG>  returns 0x1C (0002ms, 0937ms total)
T26E8 000:996 JLINK_ReadMem (0xE0001000, 0x001C Bytes, ...) >0x338 JTAG> - Data: 01 00 00 40 00 00 00 00 00 00 00 00 00 00 00 00 ...  returns 0x00 (0002ms, 0939ms total)
T26E8 000:998 JLINK_ReadReg(R15 (PC))  returns 0x00002950 (0000ms, 0939ms total)
T26E8 000:998 JLINK_ReadReg(XPSR)  returns 0x61000000 (0000ms, 0939ms total)
T26E8 001:078 JLINK_SetResetType(JLINKARM_RESET_TYPE_NORMAL)  returns JLINKARM_RESET_TYPE_HALT_WP (0000ms, 0939ms total)
T26E8 001:078 JLINK_Reset() >0x1D0 JTAG> >0x1D0 JTAG> >0x208 JTAG> >0x1D8 JTAG> >0x1D8 JTAG> >0x1D0 JTAG> >0x1D0 JTAG> -- CPU is running >0x1D8 JTAG> >0x170 JTAG> >0x1598 JTAG> >0x40 JTAG> >0x40 JTAG> >0x30 JTAG> >0x40 JTAG> >0x48 JTAG> >0x40 JTAG> >0x1D0 JTAG> >0x1D0 JTAG> >0x1D0 JTAG> >0x1D0 JTAG> >0x1D0 JTAG> >0x1D0 JTAG> >0x1D0 JTAG> >0x1D0 JTAG> >0x1D0 JTAG> >0x1D0 JTAG> >0x1D0 JTAG> >0x1D0 JTAG> >0x1D0 JTAG> >0x1D8 JTAG> >0x218 JTAG> >0x218 JTAG> >0x170 JTAG> >0x1598 JTAG> >0x1D0 JTAG> >0x1D0 JTAG>
 >0x1D8 JTAG> >0x1D8 JTAG> >0x1D8 JTAG> >0x1D8 JTAG> >0x1D8 JTAG> >0x1D8 JTAG> >0x1D8 JTAG> >0x1D8 JTAG> >0x1D0 JTAG> >0x1D0 JTAG> >0x1D0 JTAG> >0x1D0 JTAG> >0x1D0 JTAG> >0x1D0 JTAG> >0x1D0 JTAG> >0x1D8 JTAG> >0x218 JTAG> >0x218 JTAG> >0x170 JTAG> >0x1598 JTAG> >0x1D0 JTAG> >0x1D0 JTAG> >0x1D0 JTAG> >0x1D0 JTAG> >0x1D0 JTAG> >0x1D0 JTAG> >0x1D0 JTAG> >0x1D0 JTAG> >0x1D8 JTAG> >0x1D8 JTAG> (0322ms, 1261ms total)
T26E8 001:401 JLINK_ReadReg(R15 (PC))  returns 0x00002950 (0000ms, 1262ms total)
T26E8 001:401 JLINK_ReadReg(XPSR)  returns 0x61000000 (0000ms, 1262ms total)
T26E8 001:401 JLINK_ReadMem (0x00002850, 0x003C Bytes, ...) >0x8F8 JTAG> -- Updating C cache (128 bytes @ 0x00002840) -- Read from C cache (60 bytes @ 0x00002850) - Data: A0 30 84 42 09 D1 84 42 01 D1 40 2D 05 D3 31 A3 ...  returns 0x00 (0005ms, 1267ms total)
T26E8 001:406 JLINK_ReadMem (0x0000288C, 0x003C Bytes, ...) >0x548 JTAG> -- Updating C cache (64 bytes @ 0x000028C0) -- Read from C cache (60 bytes @ 0x0000288C) - Data: 70 BD 70 B5 04 46 0D 46 18 48 84 42 19 D0 17 48 ...  returns 0x00 (0003ms, 1270ms total)
T26E8 001:409 JLINK_ReadMem (0x000028C8, 0x003C Bytes, ...) >0x548 JTAG> -- Updating C cache (64 bytes @ 0x00002900) -- Read from C cache (60 bytes @ 0x000028C8) - Data: 12 A0 FF F7 39 FF 0A 48 A0 30 84 42 09 D1 84 42 ...  returns 0x00 (0003ms, 1273ms total)
T26E8 001:412 JLINK_ReadMem (0x0000294E, 0x0002 Bytes, ...) >0x548 JTAG> -- Updating C cache (64 bytes @ 0x00002940) -- Read from C cache (2 bytes @ 0x0000294E) - Data: 00 00  returns 0x00 (0003ms, 1276ms total)
T26E8 001:415 JLINK_ReadMem (0x00002950, 0x003C Bytes, ...) >0x548 JTAG> -- Updating C cache (64 bytes @ 0x00002980) -- Read from C cache (60 bytes @ 0x00002950) - Data: 09 48 80 47 09 48 00 47 FE E7 FE E7 FE E7 FE E7 ...  returns 0x00 (0003ms, 1279ms total)
T4530 002:488 JLINK_SetBPEx(Addr = 0x00001994, Type = 0xFFFFFFF2)  returns 0x00000001 (0000ms, 1279ms total)
T4530 002:488 JLINK_Go() >0x170 JTAG> >0x1D8 JTAG> >0x1D0 JTAG> >0x1D0 JTAG> >0x1D0 JTAG> >0x1D0 JTAG> >0x1D0 JTAG> >0x1D0 JTAG> >0x218 JTAG> >0x218 JTAG> (0010ms, 1289ms total)
T4530 002:599 JLINK_IsHalted() >0x170 JTAG> >0x1598 JTAG>  returns TRUE (0012ms, 1301ms total)
T4530 002:611 JLINK_Halt()  returns 0x00 (0000ms, 1289ms total)
T4530 002:611 JLINK_IsHalted()  returns TRUE (0000ms, 1289ms total)
T4530 002:611 JLINK_IsHalted()  returns TRUE (0000ms, 1289ms total)
T4530 002:611 JLINK_IsHalted()  returns TRUE (0000ms, 1289ms total)
T4530 002:611 JLINK_ReadReg(R15 (PC))  returns 0x00001994 (0000ms, 1289ms total)
T4530 002:611 JLINK_ReadReg(XPSR)  returns 0x61000000 (0000ms, 1289ms total)
T4530 002:611 JLINK_ClrBPEx(BPHandle = 0x00000001)  returns 0x00 (0000ms, 1289ms total)
T4530 002:611 JLINK_ReadMemU32(0xE000ED30, 0x0001 Items, ...) >0x1D8 JTAG> - Data: 0F 00 00 00  returns 0x01 (0002ms, 1291ms total)
T4530 002:613 JLINK_ReadMemU32(0xE0001028, 0x0001 Items, ...) >0x1D8 JTAG> - Data: 00 00 00 00  returns 0x01 (0001ms, 1292ms total)
T4530 002:614 JLINK_ReadMemU32(0xE0001038, 0x0001 Items, ...) >0x1D8 JTAG> - Data: 00 02 00 00  returns 0x01 (0002ms, 1294ms total)
T4530 002:616 JLINK_ReadMemU32(0xE0001048, 0x0001 Items, ...) >0x1D8 JTAG> - Data: 00 00 00 00  returns 0x01 (0001ms, 1295ms total)
T4530 002:617 JLINK_ReadMemU32(0xE0001058, 0x0001 Items, ...) >0x1D8 JTAG> - Data: 00 00 00 01  returns 0x01 (0001ms, 1296ms total)
T4530 002:618 JLINK_ReadReg(R0)  returns 0x10000628 (0000ms, 1296ms total)
T4530 002:618 JLINK_ReadReg(R1)  returns 0x10000628 (0000ms, 1296ms total)
T4530 002:618 JLINK_ReadReg(R2)  returns 0x10000628 (0000ms, 1296ms total)
T4530 002:618 JLINK_ReadReg(R3)  returns 0x10000628 (0001ms, 1297ms total)
T4530 002:619 JLINK_ReadReg(R4)  returns 0x00000000 (0000ms, 1297ms total)
T4530 002:619 JLINK_ReadReg(R5)  returns 0x100005C4 (0000ms, 1297ms total)
T4530 002:619 JLINK_ReadReg(R6)  returns 0x00000000 (0000ms, 1297ms total)
T4530 002:619 JLINK_ReadReg(R7)  returns 0x00000000 (0000ms, 1297ms total)
T4530 002:619 JLINK_ReadReg(R8)  returns 0x00000000 (0000ms, 1297ms total)
T4530 002:619 JLINK_ReadReg(R9)  returns 0x100001DC (0000ms, 1297ms total)
T4530 002:619 JLINK_ReadReg(R10)  returns 0x0000BA80 (0000ms, 1297ms total)
T4530 002:619 JLINK_ReadReg(R11)  returns 0x00000000 (0000ms, 1297ms total)
T4530 002:619 JLINK_ReadReg(R12)  returns 0x10000604 (0000ms, 1297ms total)
T4530 002:619 JLINK_ReadReg(R13 (SP))  returns 0x10000A28 (0000ms, 1297ms total)
T4530 002:619 JLINK_ReadReg(R14)  returns 0x00000263 (0000ms, 1297ms total)
T4530 002:619 JLINK_ReadReg(R15 (PC))  returns 0x00001994 (0000ms, 1297ms total)
T4530 002:619 JLINK_ReadReg(XPSR)  returns 0x61000000 (0000ms, 1297ms total)
T4530 002:619 JLINK_ReadReg(MSP)  returns 0x10000A28 (0000ms, 1297ms total)
T4530 002:619 JLINK_ReadReg(PSP)  returns 0x10000FE0 (0000ms, 1297ms total)
T4530 002:619 JLINK_ReadReg(CFBP)  returns 0x04000000 (0000ms, 1297ms total)
T4530 002:619 JLINK_ReadReg(FPSCR) >0x2168 JTAG>  returns 0x03000000 (0016ms, 1313ms total)
T4530 002:635 JLINK_ReadReg(FPS0)  returns 0x5F9766F5 (0000ms, 1313ms total)
T4530 002:635 JLINK_ReadReg(FPS1)  returns 0x56CDFFFC (0000ms, 1313ms total)
T4530 002:635 JLINK_ReadReg(FPS2)  returns 0xF48E3B33 (0000ms, 1313ms total)
T4530 002:635 JLINK_ReadReg(FPS3)  returns 0x1F76FD7C (0000ms, 1313ms total)
T4530 002:635 JLINK_ReadReg(FPS4)  returns 0x5F3FF217 (0000ms, 1313ms total)
T4530 002:635 JLINK_ReadReg(FPS5)  returns 0xF8E8078F (0000ms, 1313ms total)
T4530 002:635 JLINK_ReadReg(FPS6)  returns 0x39C56177 (0000ms, 1313ms total)
T4530 002:635 JLINK_ReadReg(FPS7)  returns 0x9FB3DD8D (0000ms, 1313ms total)
T4530 002:635 JLINK_ReadReg(FPS8)  returns 0xFEA97CE7 (0000ms, 1313ms total)
T4530 002:635 JLINK_ReadReg(FPS9)  returns 0xC4EDAFD2 (0000ms, 1313ms total)
T4530 002:635 JLINK_ReadReg(FPS10)  returns 0x68F9D4F7 (0000ms, 1313ms total)
T4530 002:635 JLINK_ReadReg(FPS11)  returns 0xC576FD8C (0000ms, 1313ms total)
T4530 002:635 JLINK_ReadReg(FPS12)  returns 0xFB032BCA (0001ms, 1314ms total)
T4530 002:636 JLINK_ReadReg(FPS13)  returns 0xDE68F9F9 (0000ms, 1314ms total)
T4530 002:636 JLINK_ReadReg(FPS14)  returns 0xBBB01CCD (0000ms, 1314ms total)
T4530 002:636 JLINK_ReadReg(FPS15)  returns 0x9779B543 (0000ms, 1314ms total)
T4530 002:636 JLINK_ReadReg(FPS16)  returns 0x36E6FEBF (0000ms, 1314ms total)
T4530 002:636 JLINK_ReadReg(FPS17)  returns 0x09FF2FBA (0000ms, 1314ms total)
T4530 002:636 JLINK_ReadReg(FPS18)  returns 0x15A74A31 (0000ms, 1314ms total)
T4530 002:636 JLINK_ReadReg(FPS19)  returns 0x923D9F52 (0000ms, 1314ms total)
T4530 002:636 JLINK_ReadReg(FPS20)  returns 0x78FDFA75 (0000ms, 1314ms total)
T4530 002:636 JLINK_ReadReg(FPS21)  returns 0x8B74FEDE (0000ms, 1314ms total)
T4530 002:636 JLINK_ReadReg(FPS22)  returns 0x45379973 (0000ms, 1314ms total)
T4530 002:636 JLINK_ReadReg(FPS23)  returns 0xF4B9B53F (0000ms, 1314ms total)
T4530 002:636 JLINK_ReadReg(FPS24)  returns 0xFF2232F9 (0000ms, 1314ms total)
T4530 002:636 JLINK_ReadReg(FPS25)  returns 0x137287E4 (0000ms, 1314ms total)
T4530 002:636 JLINK_ReadReg(FPS26)  returns 0xDCF7792A (0000ms, 1314ms total)
T4530 002:636 JLINK_ReadReg(FPS27)  returns 0x81EF5B6F (0000ms, 1314ms total)
T4530 002:636 JLINK_ReadReg(FPS28)  returns 0xE57F96A3 (0000ms, 1314ms total)
T4530 002:636 JLINK_ReadReg(FPS29)  returns 0x34CAA3A1 (0000ms, 1314ms total)
T4530 002:636 JLINK_ReadReg(FPS30)  returns 0xB0AACF4E (0000ms, 1314ms total)
T4530 002:636 JLINK_ReadReg(FPS31)  returns 0xFEEC6BB2 (0000ms, 1314ms total)
T26E8 002:645 JLINK_ReadMemU32(0xE0001004, 0x0001 Items, ...) >0x1D8 JTAG> - Data: 00 48 00 00  returns 0x01 (0002ms, 1316ms total)
T26E8 002:651 JLINK_ReadMem (0x00001894, 0x003C Bytes, ...) >0x8F8 JTAG> -- Updating C cache (128 bytes @ 0x00001880) -- Read from C cache (60 bytes @ 0x00001894) - Data: 37 49 38 A0 00 F0 52 FF 62 1E 38 4B 53 F8 22 00 ...  returns 0x00 (0004ms, 1320ms total)
T26E8 002:655 JLINK_ReadMem (0x000018D0, 0x003C Bytes, ...) >0x548 JTAG> -- Updating C cache (64 bytes @ 0x00001900) -- Read from C cache (60 bytes @ 0x000018D0) - Data: 2B 4B 53 F8 22 00 00 F0 39 F8 10 BD 10 B5 04 46 ...  returns 0x00 (0003ms, 1323ms total)
T26E8 002:658 JLINK_ReadMem (0x0000190C, 0x003C Bytes, ...) >0x548 JTAG> -- Updating C cache (64 bytes @ 0x00001940) -- Read from C cache (60 bytes @ 0x0000190C) - Data: 70 B5 04 46 0D 46 01 2C 01 DB 04 2C 06 DD 0F A3 ...  returns 0x00 (0003ms, 1326ms total)
T26E8 002:661 JLINK_ReadMem (0x00001948, 0x003C Bytes, ...) >0x548 JTAG> -- Updating C cache (64 bytes @ 0x00001980) -- Read from C cache (60 bytes @ 0x00001948) - Data: 00 BF 70 BD 81 61 70 47 00 80 09 20 20 00 04 00 ...  returns 0x00 (0003ms, 1329ms total)
T26E8 002:664 JLINK_ReadMem (0x00001992, 0x0002 Bytes, ...) -- Read from C cache (2 bytes @ 0x00001992) - Data: 00 00  returns 0x00 (0000ms, 1329ms total)
T26E8 002:664 JLINK_ReadMem (0x00001994, 0x003C Bytes, ...) >0x548 JTAG> -- Updating C cache (64 bytes @ 0x000019C0) -- Read from C cache (60 bytes @ 0x00001994) - Data: FE F7 D0 FF 00 F0 4C FE 00 F0 78 FE FF F7 58 FF ...  returns 0x00 (0003ms, 1332ms total)
T4530 048:328 JLINK_SetBPEx(Addr = 0x00001998, Type = 0xFFFFFFF2)  returns 0x00000002 (0000ms, 1332ms total)
T4530 048:328 JLINK_Go() >0x170 JTAG> >0x1D8 JTAG> >0x1D0 JTAG> >0x218 JTAG> >0x218 JTAG> (0006ms, 1338ms total)
T4530 048:434 JLINK_IsHalted() >0x170 JTAG>  returns FALSE (0001ms, 1339ms total)
T4530 048:536 JLINK_IsHalted() >0x170 JTAG>  returns FALSE (0001ms, 1339ms total)
T4530 048:638 JLINK_IsHalted() >0x170 JTAG>  returns FALSE (0001ms, 1339ms total)
T4530 048:739 JLINK_IsHalted() >0x170 JTAG>  returns FALSE (0001ms, 1339ms total)
T4530 048:841 JLINK_ReadMemU32(0xE0001004, 0x0001 Items, ...) -- CPU is running >0x1D8 JTAG> - Data: CA 55 A3 03  returns 0x01 (0001ms, 1339ms total)
T4530 048:844 JLINK_IsHalted() >0x170 JTAG>  returns FALSE (0002ms, 1341ms total)
T4530 048:946 JLINK_IsHalted() >0x170 JTAG>  returns FALSE (0001ms, 1340ms total)
T4530 049:047 JLINK_IsHalted() >0x170 JTAG>  returns FALSE (0001ms, 1340ms total)
T4530 049:149 JLINK_IsHalted() >0x170 JTAG>  returns FALSE (0001ms, 1340ms total)
T4530 049:251 JLINK_IsHalted() >0x170 JTAG>  returns FALSE (0001ms, 1340ms total)
T4530 049:352 JLINK_ReadMemU32(0xE0001004, 0x0001 Items, ...) -- CPU is running >0x1D8 JTAG> - Data: 67 E7 4A 07  returns 0x01 (0001ms, 1340ms total)
T4530 049:357 JLINK_IsHalted() >0x170 JTAG>  returns FALSE (0001ms, 1341ms total)
T4530 049:459 JLINK_IsHalted() >0x170 JTAG>  returns FALSE (0001ms, 1341ms total)
T4530 049:561 JLINK_IsHalted() >0x170 JTAG>  returns FALSE (0001ms, 1341ms total)
T4530 049:662 JLINK_IsHalted() >0x170 JTAG> >0x1598 JTAG>  returns TRUE (0012ms, 1352ms total)
T4530 049:674 JLINK_Halt()  returns 0x00 (0000ms, 1340ms total)
T4530 049:674 JLINK_IsHalted()  returns TRUE (0000ms, 1340ms total)
T4530 049:674 JLINK_IsHalted()  returns TRUE (0000ms, 1340ms total)
T4530 049:674 JLINK_IsHalted()  returns TRUE (0000ms, 1340ms total)
T4530 049:674 JLINK_ReadReg(R15 (PC))  returns 0x00001998 (0000ms, 1340ms total)
T4530 049:674 JLINK_ReadReg(XPSR)  returns 0x61000000 (0000ms, 1340ms total)
T4530 049:674 JLINK_ClrBPEx(BPHandle = 0x00000002)  returns 0x00 (0000ms, 1340ms total)
T4530 049:674 JLINK_ReadMemU32(0xE000ED30, 0x0001 Items, ...) >0x1D8 JTAG> - Data: 0F 00 00 00  returns 0x01 (0002ms, 1342ms total)
T4530 049:676 JLINK_ReadMemU32(0xE0001028, 0x0001 Items, ...) >0x1D8 JTAG> - Data: 00 00 00 00  returns 0x01 (0001ms, 1343ms total)
T4530 049:677 JLINK_ReadMemU32(0xE0001038, 0x0001 Items, ...) >0x1D8 JTAG> - Data: 00 02 00 00  returns 0x01 (0001ms, 1344ms total)
T4530 049:678 JLINK_ReadMemU32(0xE0001048, 0x0001 Items, ...) >0x1D8 JTAG> - Data: 00 00 00 00  returns 0x01 (0002ms, 1346ms total)
T4530 049:680 JLINK_ReadMemU32(0xE0001058, 0x0001 Items, ...) >0x1D8 JTAG> - Data: 00 00 00 00  returns 0x01 (0000ms, 1346ms total)
T4530 049:680 JLINK_ReadReg(R0)  returns 0x00000000 (0001ms, 1347ms total)
T4530 049:681 JLINK_ReadReg(R1)  returns 0x4001C000 (0000ms, 1347ms total)
T4530 049:681 JLINK_ReadReg(R2)  returns 0x02000116 (0000ms, 1347ms total)
T4530 049:681 JLINK_ReadReg(R3)  returns 0x10000600 (0000ms, 1347ms total)
T4530 049:681 JLINK_ReadReg(R4)  returns 0x00000000 (0000ms, 1347ms total)
T4530 049:681 JLINK_ReadReg(R5)  returns 0x100005C4 (0000ms, 1347ms total)
T4530 049:681 JLINK_ReadReg(R6)  returns 0x00000000 (0000ms, 1347ms total)
T4530 049:681 JLINK_ReadReg(R7)  returns 0x00000000 (0000ms, 1347ms total)
T4530 049:681 JLINK_ReadReg(R8)  returns 0x00000000 (0000ms, 1347ms total)
T4530 049:681 JLINK_ReadReg(R9)  returns 0x100001DC (0000ms, 1347ms total)
T4530 049:681 JLINK_ReadReg(R10)  returns 0x0000BA80 (0000ms, 1347ms total)
T4530 049:681 JLINK_ReadReg(R11)  returns 0x00000000 (0000ms, 1347ms total)
T4530 049:681 JLINK_ReadReg(R12)  returns 0x10000604 (0000ms, 1347ms total)
T4530 049:681 JLINK_ReadReg(R13 (SP))  returns 0x10000A28 (0000ms, 1347ms total)
T4530 049:681 JLINK_ReadReg(R14)  returns 0x0000091F (0000ms, 1347ms total)
T4530 049:681 JLINK_ReadReg(R15 (PC))  returns 0x00001998 (0000ms, 1347ms total)
T4530 049:681 JLINK_ReadReg(XPSR)  returns 0x61000000 (0000ms, 1347ms total)
T4530 049:681 JLINK_ReadReg(MSP)  returns 0x10000A28 (0000ms, 1347ms total)
T4530 049:681 JLINK_ReadReg(PSP)  returns 0x10000FE0 (0000ms, 1347ms total)
T4530 049:682 JLINK_ReadReg(CFBP)  returns 0x04000000 (0000ms, 1348ms total)
T4530 049:683 JLINK_ReadReg(FPSCR) >0x2168 JTAG>  returns 0x03000000 (0015ms, 1363ms total)
T4530 049:698 JLINK_ReadReg(FPS0)  returns 0x5F9766F5 (0000ms, 1363ms total)
T4530 049:698 JLINK_ReadReg(FPS1)  returns 0x56CDFFFC (0000ms, 1363ms total)
T4530 049:698 JLINK_ReadReg(FPS2)  returns 0xF48E3B33 (0000ms, 1363ms total)
T4530 049:698 JLINK_ReadReg(FPS3)  returns 0x1F76FD7C (0000ms, 1363ms total)
T4530 049:698 JLINK_ReadReg(FPS4)  returns 0x5F3FF217 (0000ms, 1363ms total)
T4530 049:698 JLINK_ReadReg(FPS5)  returns 0xF8E8078F (0000ms, 1363ms total)
T4530 049:698 JLINK_ReadReg(FPS6)  returns 0x39C56177 (0000ms, 1363ms total)
T4530 049:698 JLINK_ReadReg(FPS7)  returns 0x9FB3DD8D (0000ms, 1363ms total)
T4530 049:698 JLINK_ReadReg(FPS8)  returns 0xFEA97CE7 (0000ms, 1363ms total)
T4530 049:698 JLINK_ReadReg(FPS9)  returns 0xC4EDAFD2 (0000ms, 1363ms total)
T4530 049:698 JLINK_ReadReg(FPS10)  returns 0x68F9D4F7 (0000ms, 1363ms total)
T4530 049:698 JLINK_ReadReg(FPS11)  returns 0xC576FD8C (0000ms, 1363ms total)
T4530 049:698 JLINK_ReadReg(FPS12)  returns 0xFB032BCA (0000ms, 1363ms total)
T4530 049:698 JLINK_ReadReg(FPS13)  returns 0xDE68F9F9 (0000ms, 1363ms total)
T4530 049:698 JLINK_ReadReg(FPS14)  returns 0xBBB01CCD (0000ms, 1363ms total)
T4530 049:698 JLINK_ReadReg(FPS15)  returns 0x9779B543 (0000ms, 1363ms total)
T4530 049:699 JLINK_ReadReg(FPS16)  returns 0x36E6FEBF (0000ms, 1364ms total)
T4530 049:699 JLINK_ReadReg(FPS17)  returns 0x09FF2FBA (0000ms, 1364ms total)
T4530 049:699 JLINK_ReadReg(FPS18)  returns 0x15A74A31 (0000ms, 1364ms total)
T4530 049:699 JLINK_ReadReg(FPS19)  returns 0x923D9F52 (0000ms, 1364ms total)
T4530 049:699 JLINK_ReadReg(FPS20)  returns 0x78FDFA75 (0000ms, 1364ms total)
T4530 049:699 JLINK_ReadReg(FPS21)  returns 0x8B74FEDE (0000ms, 1364ms total)
T4530 049:699 JLINK_ReadReg(FPS22)  returns 0x45379973 (0000ms, 1364ms total)
T4530 049:699 JLINK_ReadReg(FPS23)  returns 0xF4B9B53F (0000ms, 1364ms total)
T4530 049:699 JLINK_ReadReg(FPS24)  returns 0xFF2232F9 (0000ms, 1364ms total)
T4530 049:699 JLINK_ReadReg(FPS25)  returns 0x137287E4 (0000ms, 1364ms total)
T4530 049:699 JLINK_ReadReg(FPS26)  returns 0xDCF7792A (0000ms, 1364ms total)
T4530 049:699 JLINK_ReadReg(FPS27)  returns 0x81EF5B6F (0000ms, 1364ms total)
T4530 049:699 JLINK_ReadReg(FPS28)  returns 0xE57F96A3 (0000ms, 1364ms total)
T4530 049:699 JLINK_ReadReg(FPS29)  returns 0x34CAA3A1 (0000ms, 1364ms total)
T4530 049:699 JLINK_ReadReg(FPS30)  returns 0xB0AACF4E (0000ms, 1364ms total)
T4530 049:699 JLINK_ReadReg(FPS31)  returns 0xFEEC6BB2 (0000ms, 1364ms total)
T26E8 049:700 JLINK_ReadMemU32(0xE0001004, 0x0001 Items, ...) >0x1D8 JTAG> - Data: C2 26 C9 08  returns 0x01 (0002ms, 1366ms total)
T26E8 049:714 JLINK_ReadMem (0x00001998, 0x003C Bytes, ...) >0x8F8 JTAG> -- Updating C cache (128 bytes @ 0x00001980) -- Read from C cache (60 bytes @ 0x00001998) - Data: 00 F0 4C FE 00 F0 78 FE FF F7 58 FF 01 20 FF F7 ...  returns 0x00 (0005ms, 1371ms total)
T4530 050:221 JLINK_SetBPEx(Addr = 0x0000199C, Type = 0xFFFFFFF2)  returns 0x00000003 (0000ms, 1371ms total)
T4530 050:221 JLINK_Go() >0x170 JTAG> >0x1D8 JTAG> >0x1D0 JTAG> >0x218 JTAG> >0x218 JTAG> (0006ms, 1377ms total)
T4530 050:328 JLINK_IsHalted() >0x170 JTAG> >0x1598 JTAG>  returns TRUE (0013ms, 1390ms total)
T4530 050:342 JLINK_Halt()  returns 0x00 (0000ms, 1377ms total)
T4530 050:342 JLINK_IsHalted()  returns TRUE (0000ms, 1377ms total)
T4530 050:342 JLINK_IsHalted()  returns TRUE (0000ms, 1377ms total)
T4530 050:342 JLINK_IsHalted()  returns TRUE (0000ms, 1377ms total)
T4530 050:342 JLINK_ReadReg(R15 (PC))  returns 0x0000199C (0000ms, 1377ms total)
T4530 050:342 JLINK_ReadReg(XPSR)  returns 0x01000000 (0000ms, 1377ms total)
T4530 050:342 JLINK_ClrBPEx(BPHandle = 0x00000003)  returns 0x00 (0000ms, 1377ms total)
T4530 050:342 JLINK_ReadMemU32(0xE000ED30, 0x0001 Items, ...) >0x1D8 JTAG> - Data: 0F 00 00 00  returns 0x01 (0001ms, 1378ms total)
T4530 050:343 JLINK_ReadMemU32(0xE0001028, 0x0001 Items, ...) >0x1D8 JTAG> - Data: 00 00 00 00  returns 0x01 (0002ms, 1380ms total)
T4530 050:345 JLINK_ReadMemU32(0xE0001038, 0x0001 Items, ...) >0x1D8 JTAG> - Data: 00 02 00 00  returns 0x01 (0001ms, 1381ms total)
T4530 050:346 JLINK_ReadMemU32(0xE0001048, 0x0001 Items, ...) >0x1D8 JTAG> - Data: 00 00 00 00  returns 0x01 (0002ms, 1383ms total)
T4530 050:348 JLINK_ReadMemU32(0xE0001058, 0x0001 Items, ...) >0x1D8 JTAG> - Data: 00 00 00 00  returns 0x01 (0002ms, 1385ms total)
T4530 050:350 JLINK_ReadReg(R0)  returns 0x00000001 (0000ms, 1385ms total)
T4530 050:350 JLINK_ReadReg(R1)  returns 0x40004000 (0000ms, 1385ms total)
T4530 050:350 JLINK_ReadReg(R2)  returns 0xE000E000 (0000ms, 1385ms total)
T4530 050:350 JLINK_ReadReg(R3)  returns 0x10000600 (0000ms, 1385ms total)
T4530 050:350 JLINK_ReadReg(R4)  returns 0x00000000 (0000ms, 1385ms total)
T4530 050:350 JLINK_ReadReg(R5)  returns 0x100005C4 (0000ms, 1385ms total)
T4530 050:350 JLINK_ReadReg(R6)  returns 0x00000000 (0000ms, 1385ms total)
T4530 050:350 JLINK_ReadReg(R7)  returns 0x00000000 (0000ms, 1385ms total)
T4530 050:350 JLINK_ReadReg(R8)  returns 0x00000000 (0000ms, 1385ms total)
T4530 050:350 JLINK_ReadReg(R9)  returns 0x100001DC (0000ms, 1385ms total)
T4530 050:350 JLINK_ReadReg(R10)  returns 0x0000BA80 (0000ms, 1385ms total)
T4530 050:350 JLINK_ReadReg(R11)  returns 0x00000000 (0000ms, 1385ms total)
T4530 050:350 JLINK_ReadReg(R12)  returns 0x10000604 (0000ms, 1385ms total)
T4530 050:350 JLINK_ReadReg(R13 (SP))  returns 0x10000A28 (0001ms, 1386ms total)
T4530 050:351 JLINK_ReadReg(R14)  returns 0x0000199D (0000ms, 1386ms total)
T4530 050:351 JLINK_ReadReg(R15 (PC))  returns 0x0000199C (0000ms, 1386ms total)
T4530 050:351 JLINK_ReadReg(XPSR)  returns 0x01000000 (0000ms, 1386ms total)
T4530 050:351 JLINK_ReadReg(MSP)  returns 0x10000A28 (0000ms, 1386ms total)
T4530 050:351 JLINK_ReadReg(PSP)  returns 0x10000FE0 (0000ms, 1386ms total)
T4530 050:351 JLINK_ReadReg(CFBP)  returns 0x04000000 (0000ms, 1386ms total)
T4530 050:351 JLINK_ReadReg(FPSCR) >0x2168 JTAG>  returns 0x03000000 (0016ms, 1402ms total)
T4530 050:367 JLINK_ReadReg(FPS0)  returns 0x5F9766F5 (0000ms, 1402ms total)
T4530 050:367 JLINK_ReadReg(FPS1)  returns 0x56CDFFFC (0000ms, 1402ms total)
T4530 050:367 JLINK_ReadReg(FPS2)  returns 0xF48E3B33 (0000ms, 1402ms total)
T4530 050:367 JLINK_ReadReg(FPS3)  returns 0x1F76FD7C (0000ms, 1402ms total)
T4530 050:367 JLINK_ReadReg(FPS4)  returns 0x5F3FF217 (0000ms, 1402ms total)
T4530 050:367 JLINK_ReadReg(FPS5)  returns 0xF8E8078F (0000ms, 1402ms total)
T4530 050:367 JLINK_ReadReg(FPS6)  returns 0x39C56177 (0000ms, 1402ms total)
T4530 050:367 JLINK_ReadReg(FPS7)  returns 0x9FB3DD8D (0000ms, 1402ms total)
T4530 050:367 JLINK_ReadReg(FPS8)  returns 0xFEA97CE7 (0000ms, 1402ms total)
T4530 050:367 JLINK_ReadReg(FPS9)  returns 0xC4EDAFD2 (0000ms, 1402ms total)
T4530 050:367 JLINK_ReadReg(FPS10)  returns 0x68F9D4F7 (0000ms, 1402ms total)
T4530 050:367 JLINK_ReadReg(FPS11)  returns 0xC576FD8C (0000ms, 1402ms total)
T4530 050:367 JLINK_ReadReg(FPS12)  returns 0xFB032BCA (0000ms, 1402ms total)
T4530 050:367 JLINK_ReadReg(FPS13)  returns 0xDE68F9F9 (0000ms, 1402ms total)
T4530 050:367 JLINK_ReadReg(FPS14)  returns 0xBBB01CCD (0000ms, 1402ms total)
T4530 050:367 JLINK_ReadReg(FPS15)  returns 0x9779B543 (0000ms, 1402ms total)
T4530 050:367 JLINK_ReadReg(FPS16)  returns 0x36E6FEBF (0000ms, 1402ms total)
T4530 050:367 JLINK_ReadReg(FPS17)  returns 0x09FF2FBA (0000ms, 1402ms total)
T4530 050:367 JLINK_ReadReg(FPS18)  returns 0x15A74A31 (0000ms, 1402ms total)
T4530 050:367 JLINK_ReadReg(FPS19)  returns 0x923D9F52 (0001ms, 1403ms total)
T4530 050:368 JLINK_ReadReg(FPS20)  returns 0x78FDFA75 (0000ms, 1403ms total)
T4530 050:368 JLINK_ReadReg(FPS21)  returns 0x8B74FEDE (0000ms, 1403ms total)
T4530 050:368 JLINK_ReadReg(FPS22)  returns 0x45379973 (0000ms, 1403ms total)
T4530 050:368 JLINK_ReadReg(FPS23)  returns 0xF4B9B53F (0000ms, 1403ms total)
T4530 050:368 JLINK_ReadReg(FPS24)  returns 0xFF2232F9 (0000ms, 1403ms total)
T4530 050:368 JLINK_ReadReg(FPS25)  returns 0x137287E4 (0000ms, 1403ms total)
T4530 050:368 JLINK_ReadReg(FPS26)  returns 0xDCF7792A (0000ms, 1403ms total)
T4530 050:368 JLINK_ReadReg(FPS27)  returns 0x81EF5B6F (0000ms, 1403ms total)
T4530 050:368 JLINK_ReadReg(FPS28)  returns 0xE57F96A3 (0000ms, 1403ms total)
T4530 050:368 JLINK_ReadReg(FPS29)  returns 0x34CAA3A1 (0000ms, 1403ms total)
T4530 050:368 JLINK_ReadReg(FPS30)  returns 0xB0AACF4E (0000ms, 1403ms total)
T4530 050:368 JLINK_ReadReg(FPS31)  returns 0xFEEC6BB2 (0000ms, 1403ms total)
T26E8 050:369 JLINK_ReadMemU32(0xE0001004, 0x0001 Items, ...) >0x1D8 JTAG> - Data: 7B 27 C9 08  returns 0x01 (0001ms, 1404ms total)
T26E8 050:379 JLINK_ReadMem (0x00001998, 0x003C Bytes, ...) >0x8F8 JTAG> -- Updating C cache (128 bytes @ 0x00001980) -- Read from C cache (60 bytes @ 0x00001998) - Data: 00 F0 4C FE 00 F0 78 FE FF F7 58 FF 01 20 FF F7 ...  returns 0x00 (0005ms, 1409ms total)
T4530 050:840 JLINK_SetBPEx(Addr = 0x000019A0, Type = 0xFFFFFFF2)  returns 0x00000004 (0000ms, 1409ms total)
T4530 050:840 JLINK_Go() >0x170 JTAG> >0x1D8 JTAG> >0x1D0 JTAG> >0x218 JTAG> >0x218 JTAG> (0006ms, 1415ms total)
T4530 050:947 JLINK_IsHalted() >0x170 JTAG> >0x1598 JTAG>  returns TRUE (0011ms, 1426ms total)
T4530 050:958 JLINK_Halt()  returns 0x00 (0000ms, 1415ms total)
T4530 050:958 JLINK_IsHalted()  returns TRUE (0000ms, 1415ms total)
T4530 050:958 JLINK_IsHalted()  returns TRUE (0000ms, 1415ms total)
T4530 050:958 JLINK_IsHalted()  returns TRUE (0000ms, 1415ms total)
T4530 050:958 JLINK_ReadReg(R15 (PC))  returns 0x000019A0 (0000ms, 1415ms total)
T4530 050:958 JLINK_ReadReg(XPSR)  returns 0x01000000 (0000ms, 1415ms total)
T4530 050:958 JLINK_ClrBPEx(BPHandle = 0x00000004)  returns 0x00 (0000ms, 1415ms total)
T4530 050:958 JLINK_ReadMemU32(0xE000ED30, 0x0001 Items, ...) >0x1D8 JTAG> - Data: 0F 00 00 00  returns 0x01 (0001ms, 1416ms total)
T4530 050:959 JLINK_ReadMemU32(0xE0001028, 0x0001 Items, ...) >0x1D8 JTAG> - Data: 00 00 00 00  returns 0x01 (0001ms, 1417ms total)
T4530 050:960 JLINK_ReadMemU32(0xE0001038, 0x0001 Items, ...) >0x1D8 JTAG> - Data: 00 02 00 00  returns 0x01 (0001ms, 1418ms total)
T4530 050:961 JLINK_ReadMemU32(0xE0001048, 0x0001 Items, ...) >0x1D8 JTAG> - Data: 00 00 00 00  returns 0x01 (0001ms, 1419ms total)
T4530 050:962 JLINK_ReadMemU32(0xE0001058, 0x0001 Items, ...) >0x1D8 JTAG> - Data: 00 00 00 00  returns 0x01 (0002ms, 1421ms total)
T4530 050:964 JLINK_ReadReg(R0)  returns 0x00000001 (0000ms, 1421ms total)
T4530 050:964 JLINK_ReadReg(R1)  returns 0x40008000 (0000ms, 1421ms total)
T4530 050:964 JLINK_ReadReg(R2)  returns 0xE000E000 (0000ms, 1421ms total)
T4530 050:964 JLINK_ReadReg(R3)  returns 0x10000600 (0000ms, 1421ms total)
T4530 050:964 JLINK_ReadReg(R4)  returns 0x00000000 (0000ms, 1421ms total)
T4530 050:964 JLINK_ReadReg(R5)  returns 0x100005C4 (0000ms, 1421ms total)
T4530 050:964 JLINK_ReadReg(R6)  returns 0x00000000 (0000ms, 1421ms total)
T4530 050:964 JLINK_ReadReg(R7)  returns 0x00000000 (0000ms, 1421ms total)
T4530 050:964 JLINK_ReadReg(R8)  returns 0x00000000 (0000ms, 1421ms total)
T4530 050:964 JLINK_ReadReg(R9)  returns 0x100001DC (0000ms, 1421ms total)
T4530 050:964 JLINK_ReadReg(R10)  returns 0x0000BA80 (0000ms, 1421ms total)
T4530 050:964 JLINK_ReadReg(R11)  returns 0x00000000 (0000ms, 1421ms total)
T4530 050:964 JLINK_ReadReg(R12)  returns 0x10000604 (0000ms, 1421ms total)
T4530 050:964 JLINK_ReadReg(R13 (SP))  returns 0x10000A28 (0000ms, 1421ms total)
T4530 050:964 JLINK_ReadReg(R14)  returns 0x000019A1 (0000ms, 1421ms total)
T4530 050:964 JLINK_ReadReg(R15 (PC))  returns 0x000019A0 (0000ms, 1421ms total)
T4530 050:964 JLINK_ReadReg(XPSR)  returns 0x01000000 (0000ms, 1421ms total)
T4530 050:964 JLINK_ReadReg(MSP)  returns 0x10000A28 (0000ms, 1421ms total)
T4530 050:964 JLINK_ReadReg(PSP)  returns 0x10000FE0 (0001ms, 1422ms total)
T4530 050:965 JLINK_ReadReg(CFBP)  returns 0x04000000 (0000ms, 1422ms total)
T4530 050:965 JLINK_ReadReg(FPSCR) >0x2168 JTAG>  returns 0x03000000 (0015ms, 1437ms total)
T4530 050:980 JLINK_ReadReg(FPS0)  returns 0x5F9766F5 (0000ms, 1437ms total)
T4530 050:980 JLINK_ReadReg(FPS1)  returns 0x56CDFFFC (0000ms, 1437ms total)
T4530 050:980 JLINK_ReadReg(FPS2)  returns 0xF48E3B33 (0000ms, 1437ms total)
T4530 050:980 JLINK_ReadReg(FPS3)  returns 0x1F76FD7C (0000ms, 1437ms total)
T4530 050:980 JLINK_ReadReg(FPS4)  returns 0x5F3FF217 (0000ms, 1437ms total)
T4530 050:980 JLINK_ReadReg(FPS5)  returns 0xF8E8078F (0000ms, 1437ms total)
T4530 050:980 JLINK_ReadReg(FPS6)  returns 0x39C56177 (0000ms, 1437ms total)
T4530 050:980 JLINK_ReadReg(FPS7)  returns 0x9FB3DD8D (0000ms, 1437ms total)
T4530 050:980 JLINK_ReadReg(FPS8)  returns 0xFEA97CE7 (0000ms, 1437ms total)
T4530 050:980 JLINK_ReadReg(FPS9)  returns 0xC4EDAFD2 (0000ms, 1437ms total)
T4530 050:980 JLINK_ReadReg(FPS10)  returns 0x68F9D4F7 (0000ms, 1437ms total)
T4530 050:980 JLINK_ReadReg(FPS11)  returns 0xC576FD8C (0000ms, 1437ms total)
T4530 050:980 JLINK_ReadReg(FPS12)  returns 0xFB032BCA (0000ms, 1437ms total)
T4530 050:980 JLINK_ReadReg(FPS13)  returns 0xDE68F9F9 (0000ms, 1437ms total)
T4530 050:980 JLINK_ReadReg(FPS14)  returns 0xBBB01CCD (0000ms, 1437ms total)
T4530 050:980 JLINK_ReadReg(FPS15)  returns 0x9779B543 (0000ms, 1437ms total)
T4530 050:980 JLINK_ReadReg(FPS16)  returns 0x36E6FEBF (0000ms, 1437ms total)
T4530 050:980 JLINK_ReadReg(FPS17)  returns 0x09FF2FBA (0000ms, 1437ms total)
T4530 050:980 JLINK_ReadReg(FPS18)  returns 0x15A74A31 (0000ms, 1437ms total)
T4530 050:980 JLINK_ReadReg(FPS19)  returns 0x923D9F52 (0001ms, 1438ms total)
T4530 050:981 JLINK_ReadReg(FPS20)  returns 0x78FDFA75 (0000ms, 1438ms total)
T4530 050:981 JLINK_ReadReg(FPS21)  returns 0x8B74FEDE (0000ms, 1438ms total)
T4530 050:981 JLINK_ReadReg(FPS22)  returns 0x45379973 (0000ms, 1438ms total)
T4530 050:981 JLINK_ReadReg(FPS23)  returns 0xF4B9B53F (0000ms, 1438ms total)
T4530 050:981 JLINK_ReadReg(FPS24)  returns 0xFF2232F9 (0000ms, 1438ms total)
T4530 050:981 JLINK_ReadReg(FPS25)  returns 0x137287E4 (0000ms, 1438ms total)
T4530 050:981 JLINK_ReadReg(FPS26)  returns 0xDCF7792A (0000ms, 1438ms total)
T4530 050:981 JLINK_ReadReg(FPS27)  returns 0x81EF5B6F (0000ms, 1438ms total)
T4530 050:981 JLINK_ReadReg(FPS28)  returns 0xE57F96A3 (0000ms, 1438ms total)
T4530 050:981 JLINK_ReadReg(FPS29)  returns 0x34CAA3A1 (0000ms, 1438ms total)
T4530 050:981 JLINK_ReadReg(FPS30)  returns 0xB0AACF4E (0000ms, 1438ms total)
T4530 050:981 JLINK_ReadReg(FPS31)  returns 0xFEEC6BB2 (0000ms, 1438ms total)
T26E8 050:981 JLINK_ReadMemU32(0xE0001004, 0x0001 Items, ...) >0x1D8 JTAG> - Data: 33 28 C9 08  returns 0x01 (0001ms, 1439ms total)
T26E8 050:985 JLINK_ReadMem (0x0000199C, 0x003C Bytes, ...) >0x8F8 JTAG> -- Updating C cache (128 bytes @ 0x00001980) -- Read from C cache (60 bytes @ 0x0000199C) - Data: 00 F0 78 FE FF F7 58 FF 01 20 FF F7 6D FF 02 20 ...  returns 0x00 (0005ms, 1444ms total)
T4530 051:395 JLINK_SetBPEx(Addr = 0x000019A4, Type = 0xFFFFFFF2)  returns 0x00000005 (0000ms, 1444ms total)
T4530 051:395 JLINK_Go() >0x1D8 JTAG> >0x1D0 JTAG> >0x218 JTAG> >0x218 JTAG> (0004ms, 1448ms total)
T4530 051:500 JLINK_IsHalted() >0x170 JTAG> >0x1598 JTAG>  returns TRUE (0011ms, 1459ms total)
T4530 051:511 JLINK_Halt()  returns 0x00 (0000ms, 1448ms total)
T4530 051:511 JLINK_IsHalted()  returns TRUE (0000ms, 1448ms total)
T4530 051:511 JLINK_IsHalted()  returns TRUE (0000ms, 1448ms total)
T4530 051:511 JLINK_IsHalted()  returns TRUE (0000ms, 1448ms total)
T4530 051:511 JLINK_ReadReg(R15 (PC))  returns 0x000019A4 (0000ms, 1448ms total)
T4530 051:511 JLINK_ReadReg(XPSR)  returns 0x01000000 (0000ms, 1448ms total)
T4530 051:511 JLINK_ClrBPEx(BPHandle = 0x00000005)  returns 0x00 (0000ms, 1448ms total)
T4530 051:511 JLINK_ReadMemU32(0xE000ED30, 0x0001 Items, ...) >0x1D8 JTAG> - Data: 0F 00 00 00  returns 0x01 (0002ms, 1450ms total)
T4530 051:513 JLINK_ReadMemU32(0xE0001028, 0x0001 Items, ...) >0x1D8 JTAG> - Data: 00 00 00 00  returns 0x01 (0002ms, 1452ms total)
T4530 051:515 JLINK_ReadMemU32(0xE0001038, 0x0001 Items, ...) >0x1D8 JTAG> - Data: 00 02 00 00  returns 0x01 (0001ms, 1453ms total)
T4530 051:516 JLINK_ReadMemU32(0xE0001048, 0x0001 Items, ...) >0x1D8 JTAG> - Data: 00 00 00 00  returns 0x01 (0001ms, 1454ms total)
T4530 051:518 JLINK_ReadMemU32(0xE0001058, 0x0001 Items, ...) >0x1D8 JTAG> - Data: 00 00 00 00  returns 0x01 (0001ms, 1455ms total)
T4530 051:519 JLINK_ReadReg(R0)  returns 0x20098020 (0000ms, 1455ms total)
T4530 051:519 JLINK_ReadReg(R1)  returns 0x00040020 (0000ms, 1455ms total)
T4530 051:519 JLINK_ReadReg(R2)  returns 0x00000001 (0000ms, 1455ms total)
T4530 051:519 JLINK_ReadReg(R3)  returns 0x10000600 (0000ms, 1455ms total)
T4530 051:519 JLINK_ReadReg(R4)  returns 0x00000000 (0000ms, 1455ms total)
T4530 051:519 JLINK_ReadReg(R5)  returns 0x100005C4 (0000ms, 1455ms total)
T4530 051:519 JLINK_ReadReg(R6)  returns 0x00000000 (0000ms, 1455ms total)
T4530 051:519 JLINK_ReadReg(R7)  returns 0x00000000 (0000ms, 1455ms total)
T4530 051:519 JLINK_ReadReg(R8)  returns 0x00000000 (0000ms, 1455ms total)
T4530 051:519 JLINK_ReadReg(R9)  returns 0x100001DC (0000ms, 1455ms total)
T4530 051:519 JLINK_ReadReg(R10)  returns 0x0000BA80 (0000ms, 1455ms total)
T4530 051:519 JLINK_ReadReg(R11)  returns 0x00000000 (0000ms, 1455ms total)
T4530 051:519 JLINK_ReadReg(R12)  returns 0x10000604 (0000ms, 1455ms total)
T4530 051:519 JLINK_ReadReg(R13 (SP))  returns 0x10000A28 (0001ms, 1456ms total)
T4530 051:520 JLINK_ReadReg(R14)  returns 0x00001883 (0000ms, 1456ms total)
T4530 051:520 JLINK_ReadReg(R15 (PC))  returns 0x000019A4 (0000ms, 1456ms total)
T4530 051:520 JLINK_ReadReg(XPSR)  returns 0x01000000 (0000ms, 1456ms total)
T4530 051:520 JLINK_ReadReg(MSP)  returns 0x10000A28 (0000ms, 1456ms total)
T4530 051:520 JLINK_ReadReg(PSP)  returns 0x10000FE0 (0000ms, 1456ms total)
T4530 051:520 JLINK_ReadReg(CFBP)  returns 0x04000000 (0000ms, 1456ms total)
T4530 051:520 JLINK_ReadReg(FPSCR) >0x2168 JTAG>  returns 0x03000000 (0016ms, 1472ms total)
T4530 051:536 JLINK_ReadReg(FPS0)  returns 0x5F9766F5 (0000ms, 1472ms total)
T4530 051:536 JLINK_ReadReg(FPS1)  returns 0x56CDFFFC (0000ms, 1472ms total)
T4530 051:536 JLINK_ReadReg(FPS2)  returns 0xF48E3B33 (0000ms, 1472ms total)
T4530 051:536 JLINK_ReadReg(FPS3)  returns 0x1F76FD7C (0000ms, 1472ms total)
T4530 051:536 JLINK_ReadReg(FPS4)  returns 0x5F3FF217 (0000ms, 1472ms total)
T4530 051:536 JLINK_ReadReg(FPS5)  returns 0xF8E8078F (0000ms, 1472ms total)
T4530 051:536 JLINK_ReadReg(FPS6)  returns 0x39C56177 (0000ms, 1472ms total)
T4530 051:536 JLINK_ReadReg(FPS7)  returns 0x9FB3DD8D (0000ms, 1472ms total)
T4530 051:536 JLINK_ReadReg(FPS8)  returns 0xFEA97CE7 (0000ms, 1472ms total)
T4530 051:536 JLINK_ReadReg(FPS9)  returns 0xC4EDAFD2 (0000ms, 1472ms total)
T4530 051:536 JLINK_ReadReg(FPS10)  returns 0x68F9D4F7 (0000ms, 1472ms total)
T4530 051:536 JLINK_ReadReg(FPS11)  returns 0xC576FD8C (0000ms, 1472ms total)
T4530 051:536 JLINK_ReadReg(FPS12)  returns 0xFB032BCA (0000ms, 1472ms total)
T4530 051:536 JLINK_ReadReg(FPS13)  returns 0xDE68F9F9 (0000ms, 1472ms total)
T4530 051:536 JLINK_ReadReg(FPS14)  returns 0xBBB01CCD (0000ms, 1472ms total)
T4530 051:536 JLINK_ReadReg(FPS15)  returns 0x9779B543 (0001ms, 1473ms total)
T4530 051:537 JLINK_ReadReg(FPS16)  returns 0x36E6FEBF (0000ms, 1473ms total)
T4530 051:537 JLINK_ReadReg(FPS17)  returns 0x09FF2FBA (0000ms, 1473ms total)
T4530 051:537 JLINK_ReadReg(FPS18)  returns 0x15A74A31 (0000ms, 1473ms total)
T4530 051:537 JLINK_ReadReg(FPS19)  returns 0x923D9F52 (0000ms, 1473ms total)
T4530 051:537 JLINK_ReadReg(FPS20)  returns 0x78FDFA75 (0000ms, 1473ms total)
T4530 051:537 JLINK_ReadReg(FPS21)  returns 0x8B74FEDE (0000ms, 1473ms total)
T4530 051:537 JLINK_ReadReg(FPS22)  returns 0x45379973 (0000ms, 1473ms total)
T4530 051:537 JLINK_ReadReg(FPS23)  returns 0xF4B9B53F (0000ms, 1473ms total)
T4530 051:537 JLINK_ReadReg(FPS24)  returns 0xFF2232F9 (0000ms, 1473ms total)
T4530 051:537 JLINK_ReadReg(FPS25)  returns 0x137287E4 (0000ms, 1473ms total)
T4530 051:537 JLINK_ReadReg(FPS26)  returns 0xDCF7792A (0000ms, 1473ms total)
T4530 051:537 JLINK_ReadReg(FPS27)  returns 0x81EF5B6F (0000ms, 1473ms total)
T4530 051:537 JLINK_ReadReg(FPS28)  returns 0xE57F96A3 (0000ms, 1473ms total)
T4530 051:537 JLINK_ReadReg(FPS29)  returns 0x34CAA3A1 (0000ms, 1473ms total)
T4530 051:537 JLINK_ReadReg(FPS30)  returns 0xB0AACF4E (0000ms, 1473ms total)
T4530 051:537 JLINK_ReadReg(FPS31)  returns 0xFEEC6BB2 (0000ms, 1473ms total)
T26E8 051:538 JLINK_ReadMemU32(0xE0001004, 0x0001 Items, ...) >0x1D8 JTAG> - Data: 24 2A C9 08  returns 0x01 (0001ms, 1474ms total)
T26E8 051:551 JLINK_ReadMem (0x000019A4, 0x003C Bytes, ...) >0x8F8 JTAG> -- Updating C cache (128 bytes @ 0x00001980) -- Read from C cache (60 bytes @ 0x000019A4) - Data: 01 20 FF F7 6D FF 02 20 FF F7 6A FF 03 20 FF F7 ...  returns 0x00 (0005ms, 1479ms total)
T4530 052:021 JLINK_Step() >0x170 JTAG> -- Read from C cache (2 bytes @ 0x000019A4) >0x1D8 JTAG> >0x1D0 JTAG> >0x1D8 JTAG> >0x1D0 JTAG> -- Simulated  returns 0x00 (0005ms, 1484ms total)
T4530 052:026 JLINK_ReadReg(R15 (PC))  returns 0x000019A6 (0000ms, 1484ms total)
T4530 052:026 JLINK_ReadReg(XPSR)  returns 0x01000000 (0000ms, 1484ms total)
T4530 052:026 JLINK_SetBPEx(Addr = 0x000019AA, Type = 0xFFFFFFF2)  returns 0x00000006 (0000ms, 1484ms total)
T4530 052:026 JLINK_Go() >0x1D8 JTAG> >0x1D0 JTAG> >0x2C8 JTAG> >0x1E8 JTAG> >0x218 JTAG> >0x218 JTAG> (0008ms, 1492ms total)
T4530 052:135 JLINK_IsHalted() >0x170 JTAG> >0x1598 JTAG>  returns TRUE (0011ms, 1503ms total)
T4530 052:146 JLINK_Halt()  returns 0x00 (0000ms, 1492ms total)
T4530 052:146 JLINK_IsHalted()  returns TRUE (0000ms, 1492ms total)
T4530 052:146 JLINK_IsHalted()  returns TRUE (0000ms, 1492ms total)
T4530 052:146 JLINK_IsHalted()  returns TRUE (0000ms, 1492ms total)
T4530 052:146 JLINK_ReadReg(R15 (PC))  returns 0x000019AA (0000ms, 1492ms total)
T4530 052:146 JLINK_ReadReg(XPSR)  returns 0x61000000 (0000ms, 1492ms total)
T4530 052:146 JLINK_ClrBPEx(BPHandle = 0x00000006)  returns 0x00 (0000ms, 1492ms total)
T4530 052:146 JLINK_ReadMemU32(0xE000ED30, 0x0001 Items, ...) >0x1D8 JTAG> - Data: 0F 00 00 00  returns 0x01 (0002ms, 1494ms total)
T4530 052:148 JLINK_ReadMemU32(0xE0001028, 0x0001 Items, ...) >0x1D8 JTAG> - Data: 00 00 00 00  returns 0x01 (0001ms, 1495ms total)
T4530 052:149 JLINK_ReadMemU32(0xE0001038, 0x0001 Items, ...) >0x1D8 JTAG> - Data: 00 02 00 00  returns 0x01 (0001ms, 1496ms total)
T4530 052:150 JLINK_ReadMemU32(0xE0001048, 0x0001 Items, ...) >0x1D8 JTAG> - Data: 00 00 00 00  returns 0x01 (0002ms, 1498ms total)
T4530 052:152 JLINK_ReadMemU32(0xE0001058, 0x0001 Items, ...) >0x1D8 JTAG> - Data: 00 00 00 00  returns 0x01 (0001ms, 1499ms total)
T4530 052:153 JLINK_ReadReg(R0)  returns 0x20098020 (0000ms, 1499ms total)
T4530 052:153 JLINK_ReadReg(R1)  returns 0x00000020 (0000ms, 1499ms total)
T4530 052:153 JLINK_ReadReg(R2)  returns 0x00000000 (0000ms, 1499ms total)
T4530 052:153 JLINK_ReadReg(R3)  returns 0x0000B8F0 (0000ms, 1499ms total)
T4530 052:153 JLINK_ReadReg(R4)  returns 0x00000000 (0000ms, 1499ms total)
T4530 052:153 JLINK_ReadReg(R5)  returns 0x100005C4 (0000ms, 1499ms total)
T4530 052:153 JLINK_ReadReg(R6)  returns 0x00000000 (0000ms, 1499ms total)
T4530 052:153 JLINK_ReadReg(R7)  returns 0x00000000 (0000ms, 1499ms total)
T4530 052:154 JLINK_ReadReg(R8)  returns 0x00000000 (0000ms, 1500ms total)
T4530 052:154 JLINK_ReadReg(R9)  returns 0x100001DC (0000ms, 1500ms total)
T4530 052:154 JLINK_ReadReg(R10)  returns 0x0000BA80 (0000ms, 1500ms total)
T4530 052:154 JLINK_ReadReg(R11)  returns 0x00000000 (0000ms, 1500ms total)
T4530 052:154 JLINK_ReadReg(R12)  returns 0x10000604 (0000ms, 1500ms total)
T4530 052:154 JLINK_ReadReg(R13 (SP))  returns 0x10000A28 (0000ms, 1500ms total)
T4530 052:154 JLINK_ReadReg(R14)  returns 0x000019AB (0000ms, 1500ms total)
T4530 052:154 JLINK_ReadReg(R15 (PC))  returns 0x000019AA (0000ms, 1500ms total)
T4530 052:154 JLINK_ReadReg(XPSR)  returns 0x61000000 (0000ms, 1500ms total)
T4530 052:154 JLINK_ReadReg(MSP)  returns 0x10000A28 (0000ms, 1500ms total)
T4530 052:154 JLINK_ReadReg(PSP)  returns 0x10000FE0 (0000ms, 1500ms total)
T4530 052:154 JLINK_ReadReg(CFBP)  returns 0x04000000 (0000ms, 1500ms total)
T4530 052:154 JLINK_ReadReg(FPSCR) >0x2168 JTAG>  returns 0x03000000 (0016ms, 1516ms total)
T4530 052:170 JLINK_ReadReg(FPS0)  returns 0x5F9766F5 (0000ms, 1516ms total)
T4530 052:170 JLINK_ReadReg(FPS1)  returns 0x56CDFFFC (0000ms, 1516ms total)
T4530 052:170 JLINK_ReadReg(FPS2)  returns 0xF48E3B33 (0000ms, 1516ms total)
T4530 052:170 JLINK_ReadReg(FPS3)  returns 0x1F76FD7C (0000ms, 1516ms total)
T4530 052:170 JLINK_ReadReg(FPS4)  returns 0x5F3FF217 (0000ms, 1516ms total)
T4530 052:170 JLINK_ReadReg(FPS5)  returns 0xF8E8078F (0000ms, 1516ms total)
T4530 052:170 JLINK_ReadReg(FPS6)  returns 0x39C56177 (0000ms, 1516ms total)
T4530 052:170 JLINK_ReadReg(FPS7)  returns 0x9FB3DD8D (0000ms, 1516ms total)
T4530 052:170 JLINK_ReadReg(FPS8)  returns 0xFEA97CE7 (0000ms, 1516ms total)
T4530 052:170 JLINK_ReadReg(FPS9)  returns 0xC4EDAFD2 (0000ms, 1516ms total)
T4530 052:170 JLINK_ReadReg(FPS10)  returns 0x68F9D4F7 (0000ms, 1516ms total)
T4530 052:170 JLINK_ReadReg(FPS11)  returns 0xC576FD8C (0000ms, 1516ms total)
T4530 052:170 JLINK_ReadReg(FPS12)  returns 0xFB032BCA (0000ms, 1516ms total)
T4530 052:170 JLINK_ReadReg(FPS13)  returns 0xDE68F9F9 (0001ms, 1517ms total)
T4530 052:171 JLINK_ReadReg(FPS14)  returns 0xBBB01CCD (0000ms, 1517ms total)
T4530 052:171 JLINK_ReadReg(FPS15)  returns 0x9779B543 (0000ms, 1517ms total)
T4530 052:171 JLINK_ReadReg(FPS16)  returns 0x36E6FEBF (0000ms, 1517ms total)
T4530 052:171 JLINK_ReadReg(FPS17)  returns 0x09FF2FBA (0000ms, 1517ms total)
T4530 052:171 JLINK_ReadReg(FPS18)  returns 0x15A74A31 (0000ms, 1517ms total)
T4530 052:171 JLINK_ReadReg(FPS19)  returns 0x923D9F52 (0000ms, 1517ms total)
T4530 052:171 JLINK_ReadReg(FPS20)  returns 0x78FDFA75 (0000ms, 1517ms total)
T4530 052:171 JLINK_ReadReg(FPS21)  returns 0x8B74FEDE (0000ms, 1517ms total)
T4530 052:171 JLINK_ReadReg(FPS22)  returns 0x45379973 (0000ms, 1517ms total)
T4530 052:171 JLINK_ReadReg(FPS23)  returns 0xF4B9B53F (0000ms, 1517ms total)
T4530 052:171 JLINK_ReadReg(FPS24)  returns 0xFF2232F9 (0000ms, 1517ms total)
T4530 052:171 JLINK_ReadReg(FPS25)  returns 0x137287E4 (0000ms, 1517ms total)
T4530 052:171 JLINK_ReadReg(FPS26)  returns 0xDCF7792A (0000ms, 1517ms total)
T4530 052:171 JLINK_ReadReg(FPS27)  returns 0x81EF5B6F (0000ms, 1517ms total)
T4530 052:171 JLINK_ReadReg(FPS28)  returns 0xE57F96A3 (0000ms, 1517ms total)
T4530 052:171 JLINK_ReadReg(FPS29)  returns 0x34CAA3A1 (0000ms, 1517ms total)
T4530 052:171 JLINK_ReadReg(FPS30)  returns 0xB0AACF4E (0000ms, 1517ms total)
T4530 052:172 JLINK_ReadReg(FPS31)  returns 0xFEEC6BB2 (0000ms, 1517ms total)
T26E8 052:172 JLINK_ReadMemU32(0xE0001004, 0x0001 Items, ...) >0x1D8 JTAG> - Data: 71 2B C9 08  returns 0x01 (0001ms, 1518ms total)
T26E8 052:185 JLINK_ReadMem (0x000019A4, 0x003C Bytes, ...) >0x8F8 JTAG> -- Updating C cache (128 bytes @ 0x00001980) -- Read from C cache (60 bytes @ 0x000019A4) - Data: 01 20 FF F7 6D FF 02 20 FF F7 6A FF 03 20 FF F7 ...  returns 0x00 (0004ms, 1522ms total)
T4530 052:591 JLINK_Step() -- Read from C cache (2 bytes @ 0x000019AA) -- Simulated  returns 0x00 (0000ms, 1522ms total)
T4530 052:591 JLINK_ReadReg(R15 (PC))  returns 0x000019AC (0000ms, 1522ms total)
T4530 052:591 JLINK_ReadReg(XPSR)  returns 0x21000000 (0000ms, 1522ms total)
T4530 052:591 JLINK_SetBPEx(Addr = 0x000019B0, Type = 0xFFFFFFF2)  returns 0x00000007 (0000ms, 1522ms total)
T4530 052:591 JLINK_Go() >0x1D8 JTAG> >0x1D0 JTAG> >0x2C8 JTAG> >0x1E8 JTAG> >0x1E8 JTAG> >0x218 JTAG> >0x218 JTAG> (0008ms, 1530ms total)
T4530 052:701 JLINK_IsHalted() >0x170 JTAG> >0x1598 JTAG>  returns TRUE (0011ms, 1541ms total)
T4530 052:712 JLINK_Halt()  returns 0x00 (0000ms, 1530ms total)
T4530 052:712 JLINK_IsHalted()  returns TRUE (0000ms, 1530ms total)
T4530 052:712 JLINK_IsHalted()  returns TRUE (0000ms, 1530ms total)
T4530 052:712 JLINK_IsHalted()  returns TRUE (0000ms, 1530ms total)
T4530 052:712 JLINK_ReadReg(R15 (PC))  returns 0x000019B0 (0000ms, 1530ms total)
T4530 052:712 JLINK_ReadReg(XPSR)  returns 0x21000000 (0000ms, 1530ms total)
T4530 052:712 JLINK_ClrBPEx(BPHandle = 0x00000007)  returns 0x00 (0000ms, 1530ms total)
